Time[s], Channel 0, Channel 2
-0.087396000000000, 1, 0
-0.000636000000000, 0, 0
0.000000000000000, 0, 1
0.087489000000000, 1, 1
0.089973000000000, 1, 0
0.181526000000000, 0, 0
0.183174000000000, 0, 1
0.280509000000000, 0, 0
0.281405000000000, 1, 0
0.375204000000000, 1, 1
0.375387000000000, 0, 1
0.458242000000000, 1, 1
0.458390000000000, 1, 0
0.549011000000000, 1, 1
0.549356000000000, 0, 1
0.648265000000000, 0, 0
0.648887000000000, 1, 0
0.737677000000000, 1, 1
0.739356000000000, 0, 1
0.829646000000000, 1, 1
0.829871000000000, 1, 0
0.930276000000000, 1, 1
0.930791000000000, 0, 1
1.019427000000000, 1, 1
1.022691000000000, 1, 0
1.110337000000000, 0, 0
1.111549000000000, 0, 1
1.207894000000000, 0, 0
1.209181000000000, 1, 0
1.310769000000000, 1, 1
1.313105000000000, 0, 1
1.388435000000000, 0, 0
1.388537000000000, 1, 0
1.484620000000000, 0, 0
1.486853000000000, 0, 1
1.579132000000000, 0, 0
1.579736000000000, 1, 0
1.668923000000000, 1, 1
1.669002000000000, 0, 1
1.759662000000000, 1, 1
1.759854000000000, 1, 0
1.864435000000000, 1, 1
1.865469000000000, 0, 1
1.945206000000000, 1, 1
1.945629000000000, 1, 0
2.036804000000000, 0, 0
2.037453000000000, 0, 1
2.129625000000000, 1, 1
2.129987000000000, 1, 0
2.227894000000000, 1, 1
2.228985000000000, 0, 1
2.324294000000000, 0, 0
2.325945000000000, 1, 0
2.408402000000000, 0, 0
2.409303000000000, 0, 1
2.501083000000000, 1, 1
2.501947000000000, 1, 0
2.593685000000000, 0, 0
2.594958000000000, 0, 1
2.688355000000000, 1, 1
2.688813000000000, 1, 0
2.776394000000000, 0, 0
2.776909000000000, 0, 1
2.872857000000000, 1, 1
2.873402000000000, 1, 0
2.962103000000000, 1, 1
2.962829000000000, 0, 1
3.055536000000000, 1, 1
3.055953000000000, 1, 0
3.150423000000000, 0, 0
3.150644000000000, 0, 1
3.248247000000000, 1, 1
3.248261000000000, 1, 0
3.335142000000000, 1, 1
3.339381000000000, 0, 1
3.435132000000000, 1, 1
3.437058000000000, 1, 0
3.522854000000000, 0, 0
3.523407000000000, 0, 1
3.616073000000000, 1, 1
3.618962000000000, 1, 0
3.708270000000000, 1, 1
3.708509000000000, 0, 1
3.804895000000000, 0, 0
3.804981000000000, 1, 0
3.895207000000000, 0, 0
3.895542000000000, 0, 1
3.984186000000000, 1, 1
3.988424000000000, 1, 0
4.080913000000000, 1, 1
4.081520000000000, 0, 1
4.175065000000000, 0, 0
4.175534000000000, 1, 0
4.267879000000000, 0, 0
4.270416000000000, 0, 1
4.359146000000000, 0, 0
4.361117000000000, 1, 0
4.455234000000000, 0, 0
4.455623999999999, 0, 1
4.544854000000000, 1, 1
4.546290000000000, 1, 0
4.636089999999999, 0, 0
4.636326000000000, 0, 1
4.730783000000000, 1, 1
4.730982000000000, 1, 0
4.822667000000000, 1, 1
4.823265000000000, 0, 1
4.927674000000000, 0, 0
4.929787999999999, 1, 0
5.005087000000000, 0, 0
5.009132999999999, 0, 1
5.104210000000000, 1, 1
5.104671000000000, 1, 0
5.195186000000000, 1, 1
5.197225000000000, 0, 1
5.291581000000000, 0, 0
5.292663999999999, 1, 0
5.380987000000000, 1, 1
5.382268000000000, 0, 1
5.475172000000000, 1, 1
5.477257000000000, 1, 0
5.567032999999999, 0, 0
5.567461000000000, 0, 1
5.657516999999999, 1, 1
5.658664000000000, 1, 0
5.752522000000000, 1, 1
5.753927000000000, 0, 1
5.853009999999999, 1, 1
5.855112999999999, 1, 0
5.941021999999999, 1, 1
5.942902000000000, 0, 1
6.033665000000000, 1, 1
6.034909000000000, 1, 0
6.123168000000000, 0, 0
6.123341000000000, 0, 1
6.225393000000000, 0, 0
6.226374000000000, 1, 0
6.309851000000000, 1, 1
6.314204999999999, 0, 1
6.419289000000000, 0, 0
6.421107000000000, 1, 0
6.502396999999999, 0, 0
6.503842000000000, 0, 1
6.591828000000000, 0, 0
6.591971999999999, 1, 0
6.683333999999999, 1, 1
6.684799000000000, 0, 1
6.781122000000000, 0, 0
6.782532000000000, 1, 0
6.871436000000000, 1, 1
6.871553000000000, 0, 1
6.964745000000000, 0, 0
6.965519000000000, 1, 0
7.061124000000000, 0, 0
7.063692000000000, 0, 1
7.148603000000000, 1, 1
7.148749000000000, 1, 0
7.245322000000000, 1, 1
7.247018000000000, 0, 1
7.334569999999999, 1, 1
7.334848999999999, 1, 0
7.438097000000000, 0, 0
7.443021000000000, 0, 1
7.520620999999999, 0, 0
7.522033000000000, 1, 0
7.613434000000000, 1, 1
7.613642000000000, 0, 1
7.705591000000000, 0, 0
7.705971000000000, 1, 0
7.796702000000000, 0, 0
7.796869000000000, 0, 1
7.887829000000000, 1, 1
7.888420000000000, 1, 0
7.981627000000000, 0, 0
7.981966000000000, 0, 1
8.073345999999999, 1, 1
8.073865999999999, 1, 0
8.164593000000000, 1, 1
8.166029000000000, 0, 1
8.260695000000000, 1, 1
8.261989000000000, 1, 0
8.351476000000000, 0, 0
8.351896999999999, 0, 1
8.443486000000000, 1, 1
8.443550999999999, 1, 0
8.539088000000000, 0, 0
8.539159999999999, 0, 1
8.630912000000000, 1, 1
8.631477000000000, 1, 0
8.725527999999999, 0, 0
8.726559000000000, 0, 1
8.815085000000000, 1, 1
8.815420000000000, 1, 0
8.909677000000000, 1, 1
8.911479999999999, 0, 1
9.003548000000000, 0, 0
9.003622000000000, 1, 0
9.094393000000000, 1, 1
9.095390999999999, 0, 1
9.196679000000000, 0, 0
9.198727999999999, 1, 0
9.292676000000000, 0, 0
9.294276000000000, 0, 1
9.375905999999999, 1, 1
9.378418999999999, 1, 0
9.471287999999999, 1, 1
9.472996000000000, 0, 1
9.566343000000000, 1, 1
9.566697999999999, 1, 0
9.654612999999999, 1, 1
9.654833999999999, 0, 1
9.746521999999999, 1, 1
9.746765000000000, 1, 0
9.840859999999999, 1, 1
9.841158000000000, 0, 1
9.930963999999999, 0, 0
9.934889999999999, 1, 0
10.028976000000000, 0, 0
10.030054999999999, 0, 1
10.123443999999999, 1, 1
10.123478000000000, 1, 0
10.219462000000000, 0, 0
10.221968000000000, 0, 1
10.303732000000000, 0, 0
10.307720999999999, 1, 0
10.402642000000000, 1, 1
10.403680000000000, 0, 1
10.490966000000000, 1, 1
10.491256000000000, 1, 0
10.581515999999999, 1, 1
10.582872999999999, 0, 1
10.672120999999999, 1, 1
10.673313000000000, 1, 0
10.769470000000000, 1, 1
10.769722000000000, 0, 1
10.860585000000000, 0, 0
10.860792999999999, 1, 0
10.951713999999999, 0, 0
10.951836999999999, 0, 1
11.062194000000000, 1, 1
11.063421000000000, 1, 0
11.139654000000000, 0, 0
11.140749000000000, 0, 1
11.241166000000000, 1, 1
11.241546000000000, 1, 0
11.321563999999999, 1, 1
11.324327000000000, 0, 1
11.420366000000000, 0, 0
11.421616999999999, 1, 0
11.511920000000000, 0, 0
11.512186000000000, 0, 1
11.601070000000000, 1, 1
11.602895000000000, 1, 0
11.698879999999999, 0, 0
11.699081000000000, 0, 1
11.791340000000000, 1, 1
11.794787999999999, 1, 0
11.880917000000000, 0, 0
11.881129000000000, 0, 1
11.976635999999999, 0, 0
11.976955999999999, 1, 0
12.070031999999999, 1, 1
12.070805999999999, 0, 1
12.159151000000000, 0, 0
12.160833999999999, 1, 0
12.255493999999999, 1, 1
12.255801999999999, 0, 1
12.348820000000000, 0, 0
12.349544999999999, 1, 0
12.440514000000000, 0, 0
12.443242999999999, 0, 1
12.531298000000000, 1, 1
12.534898999999999, 1, 0
12.627991999999999, 0, 0
12.630657999999999, 0, 1
12.721205999999999, 1, 1
12.745846999999999, 1, 0
12.816196000000000, 1, 1
12.817366999999999, 0, 1
12.906614999999999, 1, 1
12.906996999999999, 1, 0
12.997705999999999, 1, 1
12.998856999999999, 0, 1
13.091018000000000, 0, 0
13.092331999999999, 1, 0
13.183662000000000, 1, 1
13.185352999999999, 0, 1
13.282964000000000, 0, 0
13.283733999999999, 1, 0
13.369242000000000, 0, 0
13.369892000000000, 0, 1
13.461986999999999, 0, 0
13.462645000000000, 1, 0
13.556201999999999, 1, 1
13.556415999999999, 0, 1
13.648289000000000, 1, 1
13.648493999999999, 1, 0
13.738323999999999, 1, 1
13.738907999999999, 0, 1
13.834595000000000, 1, 1
13.834906999999999, 1, 0
13.926286999999999, 1, 1
13.926629999999999, 0, 1
14.020690000000000, 0, 0
14.021220000000000, 1, 0
14.109078999999999, 1, 1
14.109446999999999, 0, 1
14.208280999999999, 0, 0
14.209570999999999, 1, 0
14.298738000000000, 0, 0
14.300111999999999, 0, 1
14.389742999999999, 1, 1
14.390146999999999, 1, 0
14.483421999999999, 0, 0
14.483597999999999, 0, 1
14.577484999999999, 1, 1
14.577565999999999, 1, 0
14.667812000000000, 1, 1
14.669229000000000, 0, 1
14.759606999999999, 0, 0
14.760028000000000, 1, 0
14.858305000000000, 1, 1
14.858326999999999, 0, 1
14.949235999999999, 0, 0
14.949266999999999, 1, 0
15.044552999999999, 0, 0
15.045014999999999, 0, 1
15.133861000000000, 0, 0
15.134421000000000, 1, 0
15.229839000000000, 0, 0
15.229845999999998, 0, 1
15.317067999999999, 0, 0
15.318598999999999, 1, 0
15.408876999999999, 1, 1
15.410938000000000, 0, 1
15.507607999999999, 1, 1
15.508001999999999, 1, 0
15.604801999999999, 1, 1
15.606262999999998, 0, 1
15.690128999999999, 0, 0
15.691682000000000, 1, 0
15.785765000000000, 1, 1
15.787046000000000, 0, 1
15.876655000000000, 0, 0
15.877293999999999, 1, 0
15.969481999999999, 1, 1
15.970428000000000, 0, 1
16.064995000000000, 0, 0
16.065583000000000, 1, 0
16.157522999999998, 1, 1
16.158919999999998, 0, 1
16.251442999999998, 1, 1
16.251580999999998, 1, 0
16.346221000000000, 0, 0
16.348039000000000, 0, 1
16.438658999999998, 0, 0
16.441535999999999, 1, 0
16.526882000000001, 0, 0
16.527169999999998, 0, 1
16.620076000000001, 0, 0
16.620289000000000, 1, 0
16.719410000000000, 0, 0
16.719552999999998, 0, 1
16.805375999999999, 1, 1
16.805845999999999, 1, 0
16.902248999999998, 0, 0
16.903122000000000, 0, 1
16.994938999999999, 1, 1
16.995297999999998, 1, 0
17.082079000000000, 1, 1
17.083455000000001, 0, 1
17.175932000000000, 1, 1
17.177502000000000, 1, 0
17.275366999999999, 0, 0
17.277953000000000, 0, 1
17.362069999999999, 1, 1
17.363358999999999, 1, 0
17.454785999999999, 1, 1
17.455117999999999, 0, 1
17.544919999999998, 0, 0
17.545279000000001, 1, 0
17.641627000000000, 1, 1
17.642191000000000, 0, 1
17.730443999999999, 1, 1
17.731173999999999, 1, 0
17.823884000000000, 0, 0
17.824468000000000, 0, 1
17.920389000000000, 1, 1
17.921755999999998, 1, 0
18.012034000000000, 0, 0
18.012380000000000, 0, 1
18.103731000000000, 1, 1
18.103833999999999, 1, 0
18.204170999999999, 0, 0
18.205656999999999, 0, 1
18.296046999999998, 0, 0
18.298455000000001, 1, 0
18.383962000000000, 0, 0
18.384070999999999, 0, 1
18.474065000000000, 0, 0
18.474723999999998, 1, 0
18.570533999999999, 0, 0
18.570715000000000, 0, 1
18.661498999999999, 1, 1
18.677060999999998, 1, 0
18.754049999999999, 0, 0
18.756816000000001, 0, 1
18.848810999999998, 0, 0
18.849533999999998, 1, 0
18.941206999999999, 1, 1
18.941620000000000, 0, 1
19.033318999999999, 1, 1
19.035930999999998, 1, 0
19.130669999999999, 0, 0
19.130993999999998, 0, 1
19.231052999999999, 1, 1
19.234408999999999, 1, 0
19.312421000000001, 1, 1
19.312860000000001, 0, 1
19.404274999999998, 1, 1
19.404360999999998, 1, 0
19.498335000000001, 1, 1
19.499451999999998, 0, 1
19.592976999999998, 1, 1
19.593442000000000, 1, 0
19.685575000000000, 0, 0
19.685841999999997, 0, 1
19.778834000000000, 1, 1
19.780486000000000, 1, 0
19.869426999999998, 0, 0
19.871071999999998, 0, 1
19.959569999999999, 1, 1
19.959734999999998, 1, 0
20.057393999999999, 0, 0
20.058949999999999, 0, 1
20.147330000000000, 0, 0
20.148695000000000, 1, 0
20.245685999999999, 0, 0
20.245688999999999, 0, 1
20.333140999999998, 1, 1
20.335153999999999, 1, 0
20.429473999999999, 0, 0
20.430083000000000, 0, 1
20.519866999999998, 1, 1
20.541512999999998, 1, 0
20.608736000000000, 0, 0
20.610993999999998, 0, 1
20.706066999999997, 1, 1
20.711046000000000, 1, 0
20.798278000000000, 0, 0
20.800107999999998, 0, 1
20.901498999999998, 1, 1
20.901508000000000, 1, 0
20.982671000000000, 0, 0
20.986228999999998, 0, 1
21.077211999999999, 1, 1
21.077971999999999, 1, 0
21.171766999999999, 0, 0
21.173669999999998, 0, 1
21.268318000000001, 0, 0
21.269627999999997, 1, 0
21.355380999999998, 1, 1
21.355839000000000, 0, 1
21.447084999999998, 1, 1
21.448983999999999, 1, 0
21.540277000000000, 1, 1
21.540624999999999, 0, 1
21.634869999999999, 0, 0
21.635196999999998, 1, 0
21.728096999999998, 0, 0
21.730264999999999, 0, 1
21.818736999999999, 1, 1
21.819706000000000, 1, 0
21.912516000000000, 1, 1
21.912687999999999, 0, 1
22.006356000000000, 0, 0
22.007373999999999, 1, 0
22.095941999999997, 0, 0
22.097951999999999, 0, 1
22.204034999999998, 1, 1
22.206343999999998, 1, 0
22.290170999999997, 1, 1
22.292659999999998, 0, 1
22.376525999999998, 0, 0
22.376780999999998, 1, 0
22.470085999999998, 1, 1
22.470420000000001, 0, 1
22.561558999999999, 0, 0
22.562083999999999, 1, 0
22.656150000000000, 0, 0
22.657705000000000, 0, 1
22.747778999999998, 1, 1
22.748151000000000, 1, 0
22.841763999999998, 0, 0
22.842817999999998, 0, 1
22.950641999999998, 1, 1
22.953606999999998, 1, 0
23.027574999999999, 1, 1
23.029378999999999, 0, 1
23.121247000000000, 1, 1
23.121842999999998, 1, 0
23.217250999999997, 1, 1
23.217763999999999, 0, 1
23.313350000000000, 1, 1
23.314491000000000, 1, 0
23.398506999999999, 1, 1
23.398674999999997, 0, 1
23.491246000000000, 1, 1
23.494914999999999, 1, 0
23.584630999999998, 0, 0
23.584665999999999, 0, 1
23.675608999999998, 0, 0
23.676150000000000, 1, 0
23.769728000000001, 1, 1
23.770595999999998, 0, 1
23.863108999999998, 0, 0
23.864045999999998, 1, 0
23.954219999999999, 0, 0
23.954805000000000, 0, 1
24.047086000000000, 0, 0
24.047763000000000, 1, 0
24.142623999999998, 1, 1
24.142702999999997, 0, 1
24.239995999999998, 0, 0
24.241381999999998, 1, 0
24.326688999999998, 0, 0
24.327165999999998, 0, 1
24.419228000000000, 1, 1
24.419785999999998, 1, 0
24.514299999999999, 1, 1
24.514406999999999, 0, 1
24.604647999999997, 1, 1
24.605045999999998, 1, 0
24.700384999999997, 1, 1
24.701024000000000, 0, 1
24.789617999999997, 0, 0
24.791812000000000, 1, 0
24.884218999999998, 0, 0
24.890034999999997, 0, 1
24.978681999999999, 1, 1
24.984404999999999, 1, 0
25.069877999999999, 0, 0
25.074137000000000, 0, 1
25.164075999999998, 0, 0
25.165595999999997, 1, 0
25.257769000000000, 1, 1
25.327199999999998, 0, 1
25.346792999999998, 1, 1
25.350722999999999, 1, 0
25.454248999999997, 1, 1
25.462931999999999, 0, 1
25.531070000000000, 0, 0
25.595502999999997, 1, 0
25.626702999999999, 0, 0
25.627800999999998, 0, 1
25.720813000000000, 0, 0
25.732616000000000, 1, 0
25.820681999999998, 1, 1
25.868205999999997, 0, 1
25.906050999999998, 0, 0
26.004090999999999, 1, 0
26.012118999999998, 1, 1
26.017161999999999, 0, 1
26.092881999999999, 0, 0
26.107453999999997, 1, 0
26.188872999999997, 0, 0
26.189021000000000, 0, 1
26.286085999999997, 0, 0
26.286866000000000, 1, 0
26.371316999999998, 1, 1
26.372356999999997, 0, 1
26.462526000000000, 1, 1
26.463595999999999, 1, 0
26.553160999999999, 1, 1
26.554161999999998, 0, 1
26.649799999999999, 1, 1
26.650188000000000, 1, 0
26.741667999999997, 0, 0
26.741897999999999, 0, 1
26.834683999999999, 0, 0
26.835208999999999, 1, 0
26.931446999999999, 1, 1
26.932925999999998, 0, 1
27.019807000000000, 1, 1
27.020323999999999, 1, 0
27.112327999999998, 1, 1
27.112469999999998, 0, 1
27.210801999999997, 1, 1
27.213379000000000, 1, 0
27.300193999999998, 1, 1
27.301580999999999, 0, 1
27.391067999999997, 0, 0
27.391418999999999, 1, 0
27.484397999999999, 1, 1
27.486253999999999, 0, 1
27.579193000000000, 0, 0
27.579201999999999, 1, 0
27.669470999999998, 0, 0
27.670361999999997, 0, 1
27.763518999999999, 1, 1
27.764209999999999, 1, 0
27.858032999999999, 0, 0
27.859059999999999, 0, 1
27.948993999999999, 0, 0
27.949569999999998, 1, 0
28.038329999999998, 1, 1
28.041321000000000, 0, 1
28.135354000000000, 1, 1
28.135807999999997, 1, 0
28.228717000000000, 0, 0
28.231921000000000, 0, 1
28.319732999999999, 0, 0
28.320553999999998, 1, 0
28.416656999999997, 1, 1
28.417579999999997, 0, 1
28.508904999999999, 0, 0
28.512998000000000, 1, 0
28.598593999999999, 1, 1
28.599778999999998, 0, 1
28.692508000000000, 1, 1
28.692850999999997, 1, 0
28.785215999999998, 1, 1
28.786519999999999, 0, 1
28.876840999999999, 1, 1
28.880462999999999, 1, 0
28.970177000000000, 1, 1
28.970291999999997, 0, 1
29.065362000000000, 1, 1
29.065591999999999, 1, 0
29.158698999999999, 0, 0
29.158716999999999, 0, 1
29.252609000000000, 0, 0
29.254201999999999, 1, 0
29.346558999999999, 0, 0
29.346795999999998, 0, 1
29.435880999999998, 0, 0
29.436387999999997, 1, 0
29.528596999999998, 1, 1
29.529615999999997, 0, 1
29.619374999999998, 0, 0
29.619619999999998, 1, 0
29.717222999999997, 1, 1
29.717324999999999, 0, 1
29.805215999999998, 0, 0
29.807410999999998, 1, 0
29.899130000000000, 0, 0
29.899276000000000, 0, 1
29.999487999999999, 1, 1
30.003494000000000, 1, 0
30.085362999999997, 0, 0
30.090745999999999, 0, 1
30.180947999999997, 1, 1
30.183349000000000, 1, 0
30.278063000000000, 0, 0
30.278976000000000, 0, 1
30.366129999999998, 0, 0
30.367141999999998, 1, 0
30.456788000000000, 0, 0
30.457780000000000, 0, 1
30.550044999999997, 0, 0
30.550578999999999, 1, 0
30.645090000000000, 1, 1
30.645405000000000, 0, 1
30.735219999999998, 0, 0
30.735586999999999, 1, 0
30.824327999999998, 1, 1
30.828935999999999, 0, 1
30.924555999999999, 1, 1
30.926403999999998, 1, 0
31.014529999999997, 0, 0
31.014765999999998, 0, 1
31.106023999999998, 1, 1
31.107077999999998, 1, 0
31.207390999999998, 1, 1
31.208508999999999, 0, 1
31.303832000000000, 0, 0
31.304131999999999, 1, 0
31.385299000000000, 0, 0
31.385852000000000, 0, 1
31.480069000000000, 1, 1
31.481120999999998, 1, 0
31.573682999999999, 0, 0
31.573884999999997, 0, 1
31.664866000000000, 0, 0
31.665412999999997, 1, 0
31.757642999999998, 1, 1
31.758170999999997, 0, 1
31.855048999999998, 1, 1
31.855426999999999, 1, 0
31.943194999999999, 1, 1
31.944965000000000, 0, 1
32.035254000000002, 0, 0
32.036221999999995, 1, 0
32.131923000000000, 1, 1
32.133427999999995, 0, 1
32.232241000000002, 0, 0
32.234515999999999, 1, 0
32.314622999999997, 1, 1
32.314768999999998, 0, 1
32.409148000000002, 1, 1
32.410174999999995, 1, 0
32.502837999999997, 1, 1
32.503512999999998, 0, 1
32.593342000000000, 1, 1
32.594611999999998, 1, 0
32.684635000000000, 0, 0
32.686011999999998, 0, 1
32.781728999999999, 1, 1
32.784157000000000, 1, 0
32.877262000000002, 1, 1
32.877683999999995, 0, 1
32.963611000000000, 1, 1
32.964753999999999, 1, 0
33.058723999999998, 1, 1
33.059756999999998, 0, 1
33.152795999999995, 0, 0
33.155392999999997, 1, 0
33.244293999999996, 0, 0
33.244830999999998, 0, 1
33.335895999999998, 0, 0
33.336902000000002, 1, 0
33.431264999999996, 1, 1
33.431483999999998, 0, 1
33.523050999999995, 0, 0
33.523151999999996, 1, 0
33.614058000000000, 0, 0
33.614117999999998, 0, 1
33.712356999999997, 0, 0
33.713797000000000, 1, 0
33.802239000000000, 0, 0
33.802498000000000, 0, 1
33.891880000000000, 0, 0
33.892868999999997, 1, 0
33.988797999999996, 1, 1
33.988911000000002, 0, 1
34.082208999999999, 0, 0
34.082453999999998, 1, 0
34.178046000000002, 0, 0
34.178855999999996, 0, 1
34.271944999999995, 0, 0
34.272272000000001, 1, 0
34.364567000000001, 0, 0
34.366016999999999, 0, 1
34.452736999999999, 0, 0
34.453018999999998, 1, 0
34.542750999999996, 0, 0
34.542966999999997, 0, 1
34.640943000000000, 1, 1
34.642190999999997, 1, 0
34.727468999999999, 1, 1
34.731501999999999, 0, 1
34.821680000000001, 1, 1
34.821740999999996, 1, 0
34.913148999999997, 1, 1
34.917221999999995, 0, 1
35.008792000000000, 0, 0
35.009760999999997, 1, 0
35.099643000000000, 0, 0
35.101689000000000, 0, 1
35.203519000000000, 1, 1
35.204749999999997, 1, 0
35.289403999999998, 0, 0
35.291634999999999, 0, 1
35.381811999999996, 1, 1
35.383125000000000, 1, 0
35.470787000000001, 1, 1
35.471071999999999, 0, 1
35.562919999999998, 0, 0
35.564157000000002, 1, 0
35.658961999999995, 0, 0
35.659434999999995, 0, 1
35.750679999999996, 0, 0
35.750794999999997, 1, 0
35.844727999999996, 0, 0
35.847152000000001, 0, 1
35.937469999999998, 0, 0
